
T2A68 000:043 SEGGER J-Link V4.68a Log File (0021ms, 0064ms total)
T2A68 000:043 DLL Compiled: Apr 12 2013 13:26:50 (0021ms, 0064ms total)
T2A68 000:043 Logging started @ 2015-04-15 16:02 (0021ms, 0064ms total)
T2A68 000:064 JLINK_SetWarnOutHandler(...) (0000ms, 0064ms total)
T2A68 000:064 JLINK_OpenEx(...)
Firmware: J-Link ARM V8 compiled Nov 14 2012 22:34:52
Hardware: V8.00
S/N: 2002259602
Feature(s): RDI,FlashDL,FlashBP,JFlash,GDBFULL  returns O.K. (0010ms, 0074ms total)
T2A68 000:074 JLINK_SetErrorOutHandler(...) (0000ms, 0074ms total)
T2A68 000:074 JLINK_ExecCommand("ProjectFile = "F:\firmwareupdater\JLinkSettings.ini"", ...)  returns 0x00 (0039ms, 0113ms total)
T2A68 000:115 JLINK_ExecCommand("Device = STM32F103ZE", ...)
                JLINK_AddMirrorAreaEx(Addr = 0x00000000, Size = 0x00000000) (0000ms, 0000ms total)
              Device "STM32F103ZE" selected (512 KB flash, 64 KB RAM).  returns 0x00 (0004ms, 0117ms total)
T2A68 000:119 JLINK_ExecCommand("DisableConnectionTimeout", ...)  returns 0x00 (0000ms, 0117ms total)
T2A68 000:119 JLINK_GetHardwareVersion()  returns 0x13880 (0000ms, 0117ms total)
T2A68 000:119 JLINK_GetDLLVersion()  returns 46801 (0000ms, 0117ms total)
T2A68 000:119 JLINK_GetFirmwareString(...) (0000ms, 0117ms total)
T2A68 000:123 JLINK_GetDLLVersion()  returns 46801 (0000ms, 0117ms total)
T2A68 000:123 JLINK_GetCompileDateTime() (0000ms, 0117ms total)
T2A68 000:124 JLINK_GetFirmwareString(...) (0000ms, 0117ms total)
T2A68 000:125 JLINK_GetHardwareVersion()  returns 0x13880 (0000ms, 0117ms total)
T2A68 000:130 JLINK_TIF_Select(JLINKARM_TIF_JTAG)  returns 0x00 (0000ms, 0117ms total)
T2A68 000:130 JLINK_SetSpeed(2000) (0000ms, 0117ms total)
T2A68 000:130 JLINK_GetIdData(...) >0x2F8 JTAG>TotalIRLen = ?, IRPrint = 0x..000000000000000000000000 >0x30 JTAG>STM32F1xxx: Can not attach to CPU. Trying connect under reset. >0x2F8 JTAG>TotalIRLen = ?, IRPrint = 0x..000000000000000000000000 >0x30 JTAG> (0112ms, 0229ms total)
T2A68 001:884 JLINK_Close() (0010ms, 0239ms total)
T2A68 001:894 JLINK_Close() (0000ms, 0239ms total)
T2A68 006:999 JLINK_Close() (0000ms, 0239ms total)
T2A68 009:076 JLINK_Close() (0000ms, 0239ms total)
T2A68 009:077 JLINK_Close() (0000ms, 0239ms total)
T2A68 012:688 JLINK_Close() (0000ms, 0239ms total)
T2A68 012:837 JLINK_IsOpen()  returns 0x00 (0000ms, 0239ms total)
T2A68 012:837 JLINK_EMU_GetList(InterfaceMask = 0x00000001, MaxInfos = 0x00000004) [0]: USB, S/N: 2002259602  returns 0x01 (0000ms, 0239ms total)
T2A68 012:837 JLINK_Close() (0000ms, 0239ms total)
T2A68 012:837 JLINK_EMU_SelectByUSBSN(SerialNo = 2002259602)  returns 0x00 (0000ms, 0239ms total)
T2A68 012:837 JLINK_OpenEx(...)
Firmware: J-Link ARM V8 compiled Nov 14 2012 22:34:52
Hardware: V8.00
S/N: 2002259602
Feature(s): RDI,FlashDL,FlashBP,JFlash,GDBFULL  returns O.K. (0020ms, 0259ms total)
T2A68 012:858 JLINK_TIF_GetAvailable(...) (0000ms, 0259ms total)
T2A68 012:859 JLINK_GetEmuCaps()  returns 0xB9FF7BBF (0000ms, 0259ms total)
T2A68 012:859 JLINK_IsOpen()  returns 0x01 (0000ms, 0259ms total)
T2A68 012:859 JLINK_Close() (0061ms, 0320ms total)
T2A68 012:920 JLINK_EMU_SelectByUSBSN(SerialNo = 2002259602)  returns 0x00 (0000ms, 0320ms total)
T2A68 012:920 JLINK_EnableLog(...) (0000ms, 0320ms total)
T2A68 012:920 JLINK_SetWarnOutHandler(...) (0000ms, 0320ms total)
T2A68 012:920 JLINK_OpenEx(...)
Firmware: J-Link ARM V8 compiled Nov 14 2012 22:34:52
Hardware: V8.00
S/N: 2002259602
Feature(s): RDI,FlashDL,FlashBP,JFlash,GDBFULL  returns O.K. (0013ms, 0333ms total)
T2A68 012:933 JLINK_SetErrorOutHandler(...) (0000ms, 0333ms total)
T2A68 012:933 JLINK_ExecCommand("ProjectFile = "F:\firmwareupdater\JLinkSettings.ini"", ...)  returns 0x00 (0000ms, 0333ms total)
T2A68 012:933 JLINK_ExecCommand("Device = STM32F103ZE", ...)
                JLINK_AddMirrorAreaEx(Addr = 0x00000000, Size = 0x00000000) (0000ms, 0000ms total)
              Device "STM32F103ZE" selected (512 KB flash, 64 KB RAM).  returns 0x00 (0002ms, 0335ms total)
T2A68 012:935 JLINK_ExecCommand("DisableConnectionTimeout", ...)  returns 0x00 (0000ms, 0335ms total)
T2A68 012:935 JLINK_GetHardwareVersion()  returns 0x13880 (0000ms, 0335ms total)
T2A68 012:935 JLINK_GetDLLVersion()  returns 46801 (0000ms, 0335ms total)
T2A68 012:935 JLINK_GetFirmwareString(...) (0000ms, 0335ms total)
T2A68 012:936 JLINK_GetDLLVersion()  returns 46801 (0000ms, 0335ms total)
T2A68 012:936 JLINK_GetCompileDateTime() (0000ms, 0335ms total)
T2A68 012:936 JLINK_GetFirmwareString(...) (0000ms, 0335ms total)
T2A68 012:936 JLINK_GetHardwareVersion()  returns 0x13880 (0000ms, 0335ms total)
T2A68 012:939 JLINK_TIF_Select(JLINKARM_TIF_JTAG)  returns 0x00 (0000ms, 0335ms total)
T2A68 012:939 JLINK_SetSpeed(2000) (0000ms, 0335ms total)
T2A68 012:939 JLINK_SetResetType(JLINKARM_RESET_TYPE_NORMAL)  returns JLINKARM_RESET_TYPE_NORMAL (0000ms, 0335ms total)
T2A68 012:939 JLINK_Reset() >0x2F8 JTAG>TotalIRLen = ?, IRPrint = 0x..000000000000000000000000 >0x30 JTAG>STM32F1xxx: Can not attach to CPU. Trying connect under reset. >0x2F8 JTAG>Could not measure total IR len. TDO is constant high. >0x30 JTAG>JLINK_GetIdData(...) >0x2F8 JTAG>TotalIRLen = ?, IRPrint = 0x..000000000000000000000000 >0x30 JTAG>STM32F1xxx: Can not attach to CPU. Trying connect under reset. >0x2F8 JTAG>TotalIRLen = ?, IRPrint = 0x..000000000000000000000000 >0x30 JTAG>
 (0105ms, 0546ms total)
T2A68 013:150 JLINK_GetIdData(...) >0x2F8 JTAG>Could not measure total IR len. TDO is constant high. >0x30 JTAG>STM32F1xxx: Can not attach to CPU. Trying connect under reset. >0x2F8 JTAG>Could not measure total IR len. TDO is constant high. >0x30 JTAG> (0109ms, 0655ms total)
T2A68 013:274 JLINK_GetFirmwareString(...) (0001ms, 0656ms total)
T2A68 019:223 JLINK_IsOpen()  returns 0x01 (0000ms, 0656ms total)
T2A68 019:223 JLINK_Close() (0013ms, 0669ms total)
T2A68 019:236 JLINK_EMU_SelectByUSBSN(SerialNo = 2002259602)  returns 0x00 (0001ms, 0670ms total)
T2A68 019:237 JLINK_EnableLog(...) (0000ms, 0670ms total)
T2A68 019:237 JLINK_SetWarnOutHandler(...) (0000ms, 0670ms total)
T2A68 019:237 JLINK_OpenEx(...)
Firmware: J-Link ARM V8 compiled Nov 14 2012 22:34:52
Hardware: V8.00
S/N: 2002259602
Feature(s): RDI,FlashDL,FlashBP,JFlash,GDBFULL  returns O.K. (0010ms, 0680ms total)
T2A68 019:247 JLINK_SetErrorOutHandler(...) (0000ms, 0680ms total)
T2A68 019:247 JLINK_ExecCommand("ProjectFile = "F:\firmwareupdater\JLinkSettings.ini"", ...)  returns 0x00 (0000ms, 0680ms total)
T2A68 019:247 JLINK_ExecCommand("Device = STM32F103ZE", ...)
                JLINK_AddMirrorAreaEx(Addr = 0x00000000, Size = 0x00000000) (0000ms, 0000ms total)
              Device "STM32F103ZE" selected (512 KB flash, 64 KB RAM).  returns 0x00 (0001ms, 0681ms total)
T2A68 019:248 JLINK_ExecCommand("DisableConnectionTimeout", ...)  returns 0x00 (0000ms, 0681ms total)
T2A68 019:248 JLINK_GetHardwareVersion()  returns 0x13880 (0000ms, 0681ms total)
T2A68 019:248 JLINK_GetDLLVersion()  returns 46801 (0000ms, 0681ms total)
T2A68 019:248 JLINK_GetFirmwareString(...) (0000ms, 0681ms total)
T2A68 019:249 JLINK_GetDLLVersion()  returns 46801 (0000ms, 0681ms total)
T2A68 019:249 JLINK_GetCompileDateTime() (0000ms, 0681ms total)
T2A68 019:249 JLINK_GetFirmwareString(...) (0000ms, 0681ms total)
T2A68 019:249 JLINK_GetHardwareVersion()  returns 0x13880 (0000ms, 0681ms total)
T2A68 019:250 JLINK_TIF_Select(JLINKARM_TIF_SWD)  returns 0x00 (0000ms, 0681ms total)
T2A68 019:250 JLINK_SetSpeed(2000) (0000ms, 0681ms total)
T2A68 019:250 JLINK_SetResetType(JLINKARM_RESET_TYPE_NORMAL)  returns JLINKARM_RESET_TYPE_NORMAL (0000ms, 0681ms total)
T2A68 019:250 JLINK_Reset() >0x108 TIF>Found SWD-DP with ID 0x1BA01477 >0x0D TIF> >0x28 TIF> >0x0D TIF> >0x28 TIF> >0x0D TIF> >0x21 TIF> >0x0D TIF> >0x28 TIF> >0x0D TIF> >0x28 TIF> >0x0D TIF> >0x28 TIF> >0x0D TIF> >0x21 TIF> >0x0D TIF> >0x21 TIF> >0x0D TIF> >0x28 TIF> >0x0D TIF> >0x21 TIF> >0x0D TIF> >0x21 TIF> >0x0D TIF> >0x28 TIF> >0x0D TIF> >0x28 TIF> >0x108 TIF>Found SWD-DP with ID 0x1BA01477 >0x0D TIF> >0x21 TIF> >0x0D TIF> >0x28 TIF> >0x0D TIF> >0x28 TIF> >0x0D TIF> >0x21 TIF> >0x0D TIF> >0x21 TIF>
 >0x0D TIF> >0x28 TIF> >0x0D TIF> >0x21 TIF> >0x0D TIF> >0x21 TIF> >0x0D TIF> >0x21 TIF> >0x0D TIF> >0x21 TIF> >0x0D TIF> >0x21 TIF> >0x0D TIF> >0x28 TIF> >0x0D TIF> >0x28 TIF> >0x0D TIF> >0x21 TIF> >0x0D TIF> >0x21 TIF> >0x0D TIF> >0x28 TIF> >0x0D TIF> >0x21 TIF> >0x0D TIF> >0x21 TIF> >0x0D TIF> >0x28 TIF> >0x0D TIF> >0x28 TIF> >0x0D TIF> >0x28 TIF> >0x0D TIF> >0x21 TIF> >0x0D TIF> >0x21 TIF> >0x0D TIF> >0x28 TIF> >0x0D TIF> >0x28 TIF> >0x0D TIF> >0x28 TIF> >0x0D TIF> >0x28 TIF> >0x0D TIF> >0x28 TIF>
 >0x0D TIF> >0x21 TIF> >0x0D TIF> >0x21 TIF> >0x0D TIF> >0x21 TIF>TPIU fitted.ETM fitted. >0x0D TIF> >0x28 TIF> >0x0D TIF> >0x21 TIF> >0x0D TIF> >0x21 TIF> >0x0D TIF> >0x28 TIF> >0x0D TIF> >0x21 TIF> >0x0D TIF> >0x21 TIF>FPUnit: 6 code (BP) slots and 2 literal slots >0x0D TIF> >0x28 TIF> >0x0D TIF> >0x21 TIF> >0x0D TIF> >0x21 TIF> >0x0D TIF> >0x28 TIF> >0x0D TIF> >0x28 TIF> >0x0D TIF> >0x28 TIF> >0x0D TIF> >0x21 TIF> >0x0D TIF> >0x21 TIF> >0x0D TIF> >0x28 TIF> >0x0D TIF> >0x21 TIF> >0x0D TIF> >0x21 TIF>
 >0x0D TIF> >0x28 TIF> >0x0D TIF> >0x21 TIF> >0x0D TIF> >0x21 TIF>Found Cortex-M3 r1p1, Little endian. -- CPU is running -- CPU_WriteMem(4 bytes @ 0xE000EDF0) -- CPU is running -- CPU_WriteMem(4 bytes @ 0xE000EDFC) >0x35 TIF> -- CPU is running -- CPU_WriteMem(4 bytes @ 0xE000ED0C) -- CPU is running -- CPU_ReadMem(4 bytes @ 0xE000EDF0) -- CPU is running -- CPU_ReadMem(4 bytes @ 0xE000EDF0) -- CPU is running -- CPU_WriteMem(4 bytes @ 0xE000EDF0) -- CPU is running -- CPU_WriteMem(4 bytes @ 0xE000EDFC)
 -- CPU is running -- CPU_ReadMem(4 bytes @ 0xE000EDF0) -- CPU_WriteMem(4 bytes @ 0xE0002000) (0045ms, 0726ms total)
T2A68 019:295 JLINK_GetId() >0x0D TIF> >0x21 TIF>  returns 0x1BA01477 (0000ms, 0726ms total)
T2A68 019:296 JLINK_GetFirmwareString(...) (0000ms, 0726ms total)
T2A68 022:040 JLINK_IsOpen()  returns 0x01 (0000ms, 0726ms total)
T2A68 022:040 JLINK_Close() >0x42 TIF> >0x28 TIF> >0x0D TIF> >0x21 TIF> (0011ms, 0737ms total)
T2A68 022:051 JLINK_EMU_SelectByUSBSN(SerialNo = 2002259602)  returns 0x00 (0000ms, 0737ms total)
T2A68 022:051 JLINK_EnableLog(...) (0000ms, 0737ms total)
T2A68 022:051 JLINK_SetWarnOutHandler(...) (0000ms, 0737ms total)
T2A68 022:051 JLINK_OpenEx(...)
Firmware: J-Link ARM V8 compiled Nov 14 2012 22:34:52
Hardware: V8.00
S/N: 2002259602
Feature(s): RDI,FlashDL,FlashBP,JFlash,GDBFULL  returns O.K. (0010ms, 0747ms total)
T2A68 022:061 JLINK_SetErrorOutHandler(...) (0000ms, 0747ms total)
T2A68 022:061 JLINK_ExecCommand("ProjectFile = "F:\firmwareupdater\JLinkSettings.ini"", ...)  returns 0x00 (0000ms, 0747ms total)
T2A68 022:061 JLINK_ExecCommand("Device = STM32F103ZE", ...)
                JLINK_AddMirrorAreaEx(Addr = 0x00000000, Size = 0x00000000) (0000ms, 0000ms total)
              Device "STM32F103ZE" selected (512 KB flash, 64 KB RAM).  returns 0x00 (0002ms, 0749ms total)
T2A68 022:063 JLINK_ExecCommand("DisableConnectionTimeout", ...)  returns 0x00 (0000ms, 0749ms total)
T2A68 022:063 JLINK_GetHardwareVersion()  returns 0x13880 (0000ms, 0749ms total)
T2A68 022:063 JLINK_GetDLLVersion()  returns 46801 (0000ms, 0749ms total)
T2A68 022:063 JLINK_GetFirmwareString(...) (0000ms, 0749ms total)
T2A68 022:064 JLINK_GetDLLVersion()  returns 46801 (0000ms, 0749ms total)
T2A68 022:064 JLINK_GetCompileDateTime() (0000ms, 0749ms total)
T2A68 022:064 JLINK_GetFirmwareString(...) (0000ms, 0749ms total)
T2A68 022:064 JLINK_GetHardwareVersion()  returns 0x13880 (0000ms, 0749ms total)
T2A68 022:064 JLINK_TIF_Select(JLINKARM_TIF_SWD)  returns 0x00 (0001ms, 0750ms total)
T2A68 022:065 JLINK_SetSpeed(10000) (0000ms, 0750ms total)
T2A68 022:065 JLINK_SetResetType(JLINKARM_RESET_TYPE_NORMAL)  returns JLINKARM_RESET_TYPE_NORMAL (0000ms, 0750ms total)
T2A68 022:065 JLINK_Reset() >0x108 TIF>Found SWD-DP with ID 0x1BA01477 >0x0D TIF> >0x28 TIF> >0x0D TIF> >0x28 TIF> >0x0D TIF> >0x21 TIF> >0x0D TIF> >0x28 TIF> >0x0D TIF> >0x28 TIF> >0x0D TIF> >0x28 TIF> >0x0D TIF> >0x21 TIF> >0x0D TIF> >0x21 TIF> >0x0D TIF> >0x28 TIF> >0x0D TIF> >0x21 TIF> >0x0D TIF> >0x21 TIF> >0x108 TIF>Found SWD-DP with ID 0x1BA01477 >0x0D TIF> >0x21 TIF> >0x0D TIF> >0x28 TIF> >0x0D TIF> >0x28 TIF> >0x0D TIF> >0x21 TIF> >0x0D TIF> >0x21 TIF> >0x0D TIF> >0x28 TIF> >0x0D TIF> >0x21 TIF>
 >0x0D TIF> >0x21 TIF> >0x0D TIF> >0x21 TIF> >0x0D TIF> >0x21 TIF> >0x0D TIF> >0x21 TIF> >0x0D TIF> >0x28 TIF> >0x0D TIF> >0x28 TIF> >0x0D TIF> >0x21 TIF> >0x0D TIF> >0x21 TIF> >0x0D TIF> >0x28 TIF> >0x0D TIF> >0x21 TIF> >0x0D TIF> >0x21 TIF> >0x0D TIF> >0x28 TIF> >0x0D TIF> >0x28 TIF> >0x0D TIF> >0x28 TIF> >0x0D TIF> >0x21 TIF> >0x0D TIF> >0x21 TIF> >0x0D TIF> >0x28 TIF> >0x0D TIF> >0x28 TIF> >0x0D TIF> >0x28 TIF> >0x0D TIF> >0x21 TIF> >0x0D TIF> >0x21 TIF> >0x0D TIF> >0x21 TIF>TPIU fitted.ETM fitted.
 >0x0D TIF> >0x28 TIF> >0x0D TIF> >0x21 TIF> >0x0D TIF> >0x21 TIF> >0x0D TIF> >0x28 TIF> >0x0D TIF> >0x21 TIF> >0x0D TIF> >0x21 TIF>FPUnit: 6 code (BP) slots and 2 literal slots >0x0D TIF> >0x28 TIF> >0x0D TIF> >0x21 TIF> >0x0D TIF> >0x21 TIF> >0x0D TIF> >0x28 TIF> >0x0D TIF> >0x21 TIF> >0x0D TIF> >0x21 TIF> >0x0D TIF> >0x28 TIF> >0x0D TIF> >0x21 TIF> >0x0D TIF> >0x21 TIF> >0x0D TIF> >0x28 TIF> >0x0D TIF> >0x21 TIF> >0x0D TIF> >0x21 TIF>Found Cortex-M3 r1p1, Little endian. -- CPU is running
 -- CPU_WriteMem(4 bytes @ 0xE000EDF0) -- CPU is running -- CPU_WriteMem(4 bytes @ 0xE000EDFC) >0x35 TIF> -- CPU is running -- CPU_WriteMem(4 bytes @ 0xE000ED0C) -- CPU is running -- CPU_ReadMem(4 bytes @ 0xE000EDF0) -- CPU is running -- CPU_ReadMem(4 bytes @ 0xE000EDF0) -- CPU is running -- CPU_WriteMem(4 bytes @ 0xE000EDF0) -- CPU is running -- CPU_WriteMem(4 bytes @ 0xE000EDFC) -- CPU is running -- CPU_ReadMem(4 bytes @ 0xE000EDF0) -- CPU_WriteMem(4 bytes @ 0xE0002000) (0039ms, 0789ms total)
T2A68 022:104 JLINK_GetId() >0x0D TIF> >0x21 TIF>  returns 0x1BA01477 (0001ms, 0790ms total)
T2A68 022:106 JLINK_GetFirmwareString(...) (0000ms, 0790ms total)
T2A68 022:966 JLINK_Close() >0x42 TIF> >0x28 TIF> >0x0D TIF> >0x21 TIF> (0013ms, 0803ms total)
T2A68 022:979 JLINK_Close() (0000ms, 0803ms total)
T2A68 026:891 JLINK_IsOpen()  returns 0x00 (0000ms, 0803ms total)
T2A68 026:891 JLINK_EMU_GetList(InterfaceMask = 0x00000001, MaxInfos = 0x00000004) [0]: USB, S/N: 2002259602  returns 0x01 (0000ms, 0803ms total)
T2A68 026:891 JLINK_Close() (0000ms, 0803ms total)
T2A68 026:891 JLINK_EMU_SelectByUSBSN(SerialNo = 2002259602)  returns 0x00 (0000ms, 0803ms total)
T2A68 026:891 JLINK_OpenEx(...)
Firmware: J-Link ARM V8 compiled Nov 14 2012 22:34:52
Hardware: V8.00
S/N: 2002259602
Feature(s): RDI,FlashDL,FlashBP,JFlash,GDBFULL  returns O.K. (0010ms, 0813ms total)
T2A68 026:901 JLINK_TIF_GetAvailable(...) (0000ms, 0813ms total)
T2A68 026:901 JLINK_GetEmuCaps()  returns 0xB9FF7BBF (0000ms, 0813ms total)
T2A68 026:901 JLINK_IsOpen()  returns 0x01 (0000ms, 0813ms total)
T2A68 026:901 JLINK_Close() (0022ms, 0835ms total)
T2A68 026:923 JLINK_EMU_SelectByUSBSN(SerialNo = 2002259602)  returns 0x00 (0000ms, 0835ms total)
T2A68 026:923 JLINK_EnableLog(...) (0000ms, 0835ms total)
T2A68 026:923 JLINK_SetWarnOutHandler(...) (0000ms, 0835ms total)
T2A68 026:923 JLINK_OpenEx(...)
Firmware: J-Link ARM V8 compiled Nov 14 2012 22:34:52
Hardware: V8.00
S/N: 2002259602
Feature(s): RDI,FlashDL,FlashBP,JFlash,GDBFULL  returns O.K. (0012ms, 0847ms total)
T2A68 026:935 JLINK_SetErrorOutHandler(...) (0000ms, 0847ms total)
T2A68 026:935 JLINK_ExecCommand("ProjectFile = "F:\firmwareupdater\JLinkSettings.ini"", ...)  returns 0x00 (0000ms, 0847ms total)
T2A68 026:938 JLINK_ExecCommand("Device = STM32F103ZE", ...)
                JLINK_AddMirrorAreaEx(Addr = 0x00000000, Size = 0x00000000) (0000ms, 0000ms total)
              Device "STM32F103ZE" selected (512 KB flash, 64 KB RAM).  returns 0x00 (0004ms, 0851ms total)
T2A68 026:942 JLINK_ExecCommand("DisableConnectionTimeout", ...)  returns 0x00 (0000ms, 0851ms total)
T2A68 026:942 JLINK_GetHardwareVersion()  returns 0x13880 (0000ms, 0851ms total)
T2A68 026:942 JLINK_GetDLLVersion()  returns 46801 (0000ms, 0851ms total)
T2A68 026:942 JLINK_GetFirmwareString(...) (0000ms, 0851ms total)
T2A68 026:952 JLINK_GetDLLVersion()  returns 46801 (0000ms, 0851ms total)
T2A68 026:952 JLINK_GetCompileDateTime() (0000ms, 0851ms total)
T2A68 026:953 JLINK_GetFirmwareString(...) (0000ms, 0851ms total)
T2A68 026:954 JLINK_GetHardwareVersion()  returns 0x13880 (0000ms, 0851ms total)
T2A68 026:961 JLINK_TIF_Select(JLINKARM_TIF_SWD)  returns 0x00 (0000ms, 0851ms total)
T2A68 026:961 JLINK_SetSpeed(10000) (0000ms, 0851ms total)
T2A68 026:961 JLINK_GetId() >0x108 TIF>Found SWD-DP with ID 0x1BA01477 >0x0D TIF> >0x28 TIF> >0x0D TIF> >0x28 TIF> >0x0D TIF> >0x21 TIF> >0x0D TIF> >0x28 TIF> >0x0D TIF> >0x28 TIF> >0x0D TIF> >0x28 TIF> >0x0D TIF> >0x21 TIF> >0x0D TIF> >0x21 TIF> >0x0D TIF> >0x28 TIF> >0x0D TIF> >0x21 TIF> >0x0D TIF> >0x21 TIF> >0x108 TIF>Found SWD-DP with ID 0x1BA01477 >0x0D TIF> >0x21 TIF> >0x0D TIF> >0x28 TIF> >0x0D TIF> >0x28 TIF> >0x0D TIF> >0x21 TIF> >0x0D TIF> >0x21 TIF> >0x0D TIF> >0x28 TIF> >0x0D TIF> >0x21 TIF>
 >0x0D TIF> >0x21 TIF> >0x0D TIF> >0x21 TIF> >0x0D TIF> >0x21 TIF> >0x0D TIF> >0x21 TIF> >0x0D TIF> >0x28 TIF> >0x0D TIF> >0x28 TIF> >0x0D TIF> >0x21 TIF> >0x0D TIF> >0x21 TIF> >0x0D TIF> >0x28 TIF> >0x0D TIF> >0x21 TIF> >0x0D TIF> >0x21 TIF> >0x0D TIF> >0x28 TIF> >0x0D TIF> >0x28 TIF> >0x0D TIF> >0x28 TIF> >0x0D TIF> >0x21 TIF> >0x0D TIF> >0x21 TIF> >0x0D TIF> >0x28 TIF> >0x0D TIF> >0x28 TIF> >0x0D TIF> >0x28 TIF> >0x0D TIF> >0x21 TIF> >0x0D TIF> >0x21 TIF> >0x0D TIF> >0x21 TIF>TPIU fitted.ETM fitted.
 >0x0D TIF> >0x28 TIF> >0x0D TIF> >0x21 TIF> >0x0D TIF> >0x21 TIF> >0x0D TIF> >0x28 TIF> >0x0D TIF> >0x21 TIF> >0x0D TIF> >0x21 TIF>FPUnit: 6 code (BP) slots and 2 literal slots >0x0D TIF> >0x28 TIF> >0x0D TIF> >0x21 TIF> >0x0D TIF> >0x21 TIF> >0x0D TIF> >0x28 TIF> >0x0D TIF> >0x21 TIF> >0x0D TIF> >0x21 TIF> >0x0D TIF> >0x28 TIF> >0x0D TIF> >0x21 TIF> >0x0D TIF> >0x21 TIF> >0x0D TIF> >0x28 TIF> >0x0D TIF> >0x21 TIF> >0x0D TIF> >0x21 TIF>Found Cortex-M3 r1p1, Little endian. >0x0D TIF> >0x21 TIF>
  returns 0x1BA01477 (0033ms, 0884ms total)
T2A68 026:994 JLINK_GetDeviceFamily()  returns 3 (0000ms, 0884ms total)
T2A68 026:995 JLINK_ReadMem (0xE00FFFF0, 0x0010 Bytes, ...) -- CPU is running -- CPU_ReadMem(16 bytes @ 0xE00FFFF0) -- Data:  0D 00 00 00 10 00 00 00 05 00 00 00 B1 00 00 00  returns 0x00 (0000ms, 0884ms total)
T2A68 026:995 JLINK_ReadMem (0xE00FFFD0, 0x0020 Bytes, ...) -- CPU is running -- CPU_ReadMem(32 bytes @ 0xE00FFFD0) -- Data:  00 00 00 00 00 00 00 00 00 00 00 00 00 00 00 00 ...  returns 0x00 (0001ms, 0885ms total)
T2A68 026:996 JLINK_ReadMem (0xE00FF000, 0x0018 Bytes, ...) -- CPU is running -- CPU_ReadMem(24 bytes @ 0xE00FF000) -- Data:  03 F0 F0 FF 03 20 F0 FF 03 30 F0 FF 03 10 F0 FF ...  returns 0x00 (0000ms, 0885ms total)
T2A68 026:996 JLINK_ReadMemU32(0xE000ED00, 0x0001 Items, ...) -- CPU is running -- CPU_ReadMem(4 bytes @ 0xE000ED00) -- Data:  31 C2 1F 41  returns 0x01 (0001ms, 0886ms total)
T2A68 026:997 JLINK_SetResetType(JLINKARM_RESET_TYPE_NORMAL)  returns JLINKARM_RESET_TYPE_NORMAL (0000ms, 0886ms total)
T2A68 026:997 JLINK_Reset() -- CPU is running -- CPU_WriteMem(4 bytes @ 0xE000EDF0) -- CPU is running -- CPU_WriteMem(4 bytes @ 0xE000EDFC) >0x35 TIF> -- CPU is running -- CPU_WriteMem(4 bytes @ 0xE000ED0C) -- CPU is running -- CPU_ReadMem(4 bytes @ 0xE000EDF0) -- CPU is running -- CPU_ReadMem(4 bytes @ 0xE000EDF0) -- CPU is running -- CPU_WriteMem(4 bytes @ 0xE000EDF0) -- CPU is running -- CPU_WriteMem(4 bytes @ 0xE000EDFC) -- CPU is running -- CPU_ReadMem(4 bytes @ 0xE000EDF0)
 -- CPU_WriteMem(4 bytes @ 0xE0002000) (0015ms, 0901ms total)
T2A68 027:012 JLINK_Halt()  returns 0x00 (0000ms, 0901ms total)
T2A68 027:012 JLINK_IsHalted()  returns TRUE (0000ms, 0901ms total)
T2A68 027:012 JLINK_ReadMemU32(0xE000EDF0, 0x0001 Items, ...) -- CPU_ReadMem(4 bytes @ 0xE000EDF0) -- Data:  03 00 03 00  returns 0x01 (0001ms, 0902ms total)
T2A68 027:013 JLINK_WriteU32(0xE000EDF0, 0xA05F0003) -- CPU_WriteMem(4 bytes @ 0xE000EDF0)  returns 0x00 (0000ms, 0902ms total)
T2A68 027:013 JLINK_WriteU32(0xE000EDFC, 0x01000000) -- CPU_WriteMem(4 bytes @ 0xE000EDFC)  returns 0x00 (0001ms, 0903ms total)
T2A68 027:018 JLINK_GetHWStatus(...)  returns 0x00 (0000ms, 0903ms total)
T2A68 027:022 JLINK_GetNumBPUnits(Type = 0xFFFFFF00)  returns 0x06 (0000ms, 0903ms total)
T2A68 027:022 JLINK_GetNumBPUnits(Type = 0xF0)  returns 0x2000 (0000ms, 0903ms total)
T2A68 027:022 JLINK_GetNumWPUnits()  returns 0x04 (0000ms, 0903ms total)
T2A68 027:027 JLINK_GetSpeed()  returns 0xFA0 (0000ms, 0903ms total)
T2A68 027:029 JLINK_ReadMemU32(0xE000E004, 0x0001 Items, ...) -- CPU_ReadMem(4 bytes @ 0xE000E004) -- Data:  01 00 00 00  returns 0x01 (0001ms, 0904ms total)
T2A68 027:030 JLINK_ReadMemU32(0xE000E004, 0x0001 Items, ...) -- CPU_ReadMem(4 bytes @ 0xE000E004) -- Data:  01 00 00 00  returns 0x01 (0000ms, 0904ms total)
T2A68 027:030 JLINK_WriteMem(0xE0001000, 0x001C Bytes, ...) -- Data:  01 00 00 00 00 00 00 00 00 00 00 00 00 00 00 00 ... -- CPU_WriteMem(28 bytes @ 0xE0001000)  returns 0x1C (0001ms, 0905ms total)
T2A68 027:031 JLINK_ReadMem (0xE0001000, 0x001C Bytes, ...) -- CPU_ReadMem(28 bytes @ 0xE0001000) -- Data:  01 00 00 40 00 00 00 00 00 00 00 00 00 00 00 00 ...  returns 0x00 (0000ms, 0905ms total)
T2A68 027:031 JLINK_Halt()  returns 0x00 (0000ms, 0905ms total)
T2A68 027:031 JLINK_IsHalted()  returns TRUE (0000ms, 0905ms total)
T2A68 027:033 JLINK_WriteMem(0x20000000, 0x0164 Bytes, ...) -- Data:  00 BE 0A E0 0D 78 2D 06 68 40 08 24 40 00 00 D3 ... -- CPU_WriteMem(356 bytes @ 0x20000000)  returns 0x164 (0002ms, 0907ms total)
T2A68 027:035 JLINK_WriteReg(R0, 0x08000000)  returns 0x00 (0000ms, 0907ms total)
T2A68 027:035 JLINK_WriteReg(R1, 0x007A1200)  returns 0x00 (0000ms, 0907ms total)
T2A68 027:035 JLINK_WriteReg(R2, 0x00000001)  returns 0x00 (0000ms, 0907ms total)
T2A68 027:035 JLINK_WriteReg(R3, 0x00000000)  returns 0x00 (0000ms, 0907ms total)
T2A68 027:035 JLINK_WriteReg(R4, 0x00000000)  returns 0x00 (0000ms, 0907ms total)
T2A68 027:035 JLINK_WriteReg(R5, 0x00000000)  returns 0x00 (0000ms, 0907ms total)
T2A68 027:035 JLINK_WriteReg(R6, 0x00000000)  returns 0x00 (0000ms, 0907ms total)
T2A68 027:035 JLINK_WriteReg(R7, 0x00000000)  returns 0x00 (0000ms, 0907ms total)
T2A68 027:035 JLINK_WriteReg(R8, 0x00000000)  returns 0x00 (0000ms, 0907ms total)
T2A68 027:035 JLINK_WriteReg(R9, 0x20000160)  returns 0x00 (0000ms, 0907ms total)
T2A68 027:035 JLINK_WriteReg(R10, 0x00000000)  returns 0x00 (0000ms, 0907ms total)
T2A68 027:035 JLINK_WriteReg(R11, 0x00000000)  returns 0x00 (0000ms, 0907ms total)
T2A68 027:035 JLINK_WriteReg(R12, 0x00000000)  returns 0x00 (0000ms, 0907ms total)
T2A68 027:035 JLINK_WriteReg(R13, 0x20000800)  returns 0x00 (0000ms, 0907ms total)
T2A68 027:035 JLINK_WriteReg(R14, 0x20000001)  returns 0x00 (0000ms, 0907ms total)
T2A68 027:035 JLINK_WriteReg(R15, 0x20000038)  returns 0x00 (0000ms, 0907ms total)
T2A68 027:035 JLINK_WriteReg(XPSR, 0x01000000)  returns 0x00 (0000ms, 0907ms total)
T2A68 027:035 JLINK_WriteReg(MSP, 0x20000800)  returns 0x00 (0000ms, 0907ms total)
T2A68 027:035 JLINK_WriteReg(PSP, 0x20000800)  returns 0x00 (0000ms, 0907ms total)
T2A68 027:035 JLINK_WriteReg(CFBP, 0x00000000)  returns 0x00 (0000ms, 0907ms total)
T2A68 027:035 JLINK_SetBPEx(Addr = 0x20000000, Type = 0xFFFFFFF2) -- CPU_ReadMem(2 bytes @ 0x20000000)  returns 0x00000001 (0001ms, 0908ms total)
T2A68 027:036 JLINK_Go() -- CPU_WriteMem(2 bytes @ 0x20000000) -- CPU_WriteMem(4 bytes @ 0xE0002008) -- CPU_WriteMem(4 bytes @ 0xE000200C) -- CPU_WriteMem(4 bytes @ 0xE0002010) -- CPU_WriteMem(4 bytes @ 0xE0002014) -- CPU_WriteMem(4 bytes @ 0xE0002018) -- CPU_WriteMem(4 bytes @ 0xE000201C) (0004ms, 0912ms total)
T2A68 027:040 JLINK_IsHalted() -- CPU_ReadMem(2 bytes @ 0x20000000)  returns TRUE (0003ms, 0915ms total)
T2A68 027:043 JLINK_ReadReg(R15)  returns 0x20000000 (0000ms, 0912ms total)
T2A68 027:043 JLINK_ClrBPEx(BPHandle = 0x00000001)  returns 0x00 (0000ms, 0912ms total)
T2A68 027:043 JLINK_ReadReg(R0)  returns 0x00000000 (0000ms, 0912ms total)
T2A68 027:043 JLINK_WriteReg(R0, 0x08000000)  returns 0x00 (0000ms, 0912ms total)
T2A68 027:043 JLINK_WriteReg(R1, 0x00000800)  returns 0x00 (0000ms, 0912ms total)
T2A68 027:043 JLINK_WriteReg(R2, 0x000000FF)  returns 0x00 (0000ms, 0912ms total)
T2A68 027:043 JLINK_WriteReg(R3, 0x00000000)  returns 0x00 (0000ms, 0912ms total)
T2A68 027:043 JLINK_WriteReg(R4, 0x00000000)  returns 0x00 (0000ms, 0912ms total)
T2A68 027:043 JLINK_WriteReg(R5, 0x00000000)  returns 0x00 (0000ms, 0912ms total)
T2A68 027:043 JLINK_WriteReg(R6, 0x00000000)  returns 0x00 (0000ms, 0912ms total)
T2A68 027:043 JLINK_WriteReg(R7, 0x00000000)  returns 0x00 (0000ms, 0912ms total)
T2A68 027:043 JLINK_WriteReg(R8, 0x00000000)  returns 0x00 (0000ms, 0912ms total)
T2A68 027:043 JLINK_WriteReg(R9, 0x20000160)  returns 0x00 (0000ms, 0912ms total)
T2A68 027:043 JLINK_WriteReg(R10, 0x00000000)  returns 0x00 (0000ms, 0912ms total)
T2A68 027:043 JLINK_WriteReg(R11, 0x00000000)  returns 0x00 (0000ms, 0912ms total)
T2A68 027:043 JLINK_WriteReg(R12, 0x00000000)  returns 0x00 (0000ms, 0912ms total)
T2A68 027:043 JLINK_WriteReg(R13, 0x20000800)  returns 0x00 (0000ms, 0912ms total)
T2A68 027:043 JLINK_WriteReg(R14, 0x20000001)  returns 0x00 (0000ms, 0912ms total)
T2A68 027:043 JLINK_WriteReg(R15, 0x20000020)  returns 0x00 (0000ms, 0912ms total)
T2A68 027:043 JLINK_WriteReg(XPSR, 0x01000000)  returns 0x00 (0000ms, 0912ms total)
T2A68 027:043 JLINK_WriteReg(MSP, 0x20000800)  returns 0x00 (0000ms, 0912ms total)
T2A68 027:043 JLINK_WriteReg(PSP, 0x20000800)  returns 0x00 (0000ms, 0912ms total)
T2A68 027:043 JLINK_WriteReg(CFBP, 0x00000000)  returns 0x00 (0000ms, 0912ms total)
T2A68 027:043 JLINK_SetBPEx(Addr = 0x20000000, Type = 0xFFFFFFF2)  returns 0x00000002 (0000ms, 0912ms total)
T2A68 027:043 JLINK_Go() (0001ms, 0913ms total)
T2A68 027:044 JLINK_IsHalted()  returns FALSE (0001ms, 0914ms total)
T2A68 027:114 JLINK_IsHalted() -- CPU_ReadMem(2 bytes @ 0x20000000)  returns TRUE (0002ms, 0915ms total)
T2A68 027:116 JLINK_ReadReg(R15)  returns 0x20000000 (0000ms, 0913ms total)
T2A68 027:116 JLINK_ClrBPEx(BPHandle = 0x00000002)  returns 0x00 (0000ms, 0913ms total)
T2A68 027:116 JLINK_ReadReg(R0)  returns 0x00000000 (0000ms, 0913ms total)
T2A68 027:117 JLINK_WriteReg(R0, 0x08000800)  returns 0x00 (0000ms, 0913ms total)
T2A68 027:117 JLINK_WriteReg(R1, 0x00000800)  returns 0x00 (0000ms, 0913ms total)
T2A68 027:117 JLINK_WriteReg(R2, 0x000000FF)  returns 0x00 (0000ms, 0913ms total)
T2A68 027:117 JLINK_WriteReg(R3, 0x00000000)  returns 0x00 (0000ms, 0913ms total)
T2A68 027:117 JLINK_WriteReg(R4, 0x00000000)  returns 0x00 (0000ms, 0913ms total)
T2A68 027:117 JLINK_WriteReg(R5, 0x00000000)  returns 0x00 (0000ms, 0913ms total)
T2A68 027:117 JLINK_WriteReg(R6, 0x00000000)  returns 0x00 (0000ms, 0913ms total)
T2A68 027:117 JLINK_WriteReg(R7, 0x00000000)  returns 0x00 (0000ms, 0913ms total)
T2A68 027:117 JLINK_WriteReg(R8, 0x00000000)  returns 0x00 (0000ms, 0913ms total)
T2A68 027:117 JLINK_WriteReg(R9, 0x20000160)  returns 0x00 (0000ms, 0913ms total)
T2A68 027:117 JLINK_WriteReg(R10, 0x00000000)  returns 0x00 (0000ms, 0913ms total)
T2A68 027:117 JLINK_WriteReg(R11, 0x00000000)  returns 0x00 (0000ms, 0913ms total)
T2A68 027:117 JLINK_WriteReg(R12, 0x00000000)  returns 0x00 (0000ms, 0913ms total)
T2A68 027:117 JLINK_WriteReg(R13, 0x20000800)  returns 0x00 (0000ms, 0913ms total)
T2A68 027:117 JLINK_WriteReg(R14, 0x20000001)  returns 0x00 (0000ms, 0913ms total)
T2A68 027:117 JLINK_WriteReg(R15, 0x20000020)  returns 0x00 (0000ms, 0913ms total)
T2A68 027:117 JLINK_WriteReg(XPSR, 0x01000000)  returns 0x00 (0000ms, 0913ms total)
T2A68 027:117 JLINK_WriteReg(MSP, 0x20000800)  returns 0x00 (0000ms, 0913ms total)
T2A68 027:117 JLINK_WriteReg(PSP, 0x20000800)  returns 0x00 (0000ms, 0913ms total)
T2A68 027:117 JLINK_WriteReg(CFBP, 0x00000000)  returns 0x00 (0000ms, 0913ms total)
T2A68 027:117 JLINK_SetBPEx(Addr = 0x20000000, Type = 0xFFFFFFF2)  returns 0x00000003 (0000ms, 0913ms total)
T2A68 027:117 JLINK_Go() (0001ms, 0914ms total)
T2A68 027:118 JLINK_IsHalted()  returns FALSE (0000ms, 0914ms total)
T2A68 027:121 JLINK_IsHalted()  returns FALSE (0000ms, 0914ms total)
T2A68 027:123 JLINK_IsHalted() -- CPU_ReadMem(2 bytes @ 0x20000000)  returns TRUE (0002ms, 0916ms total)
T2A68 027:125 JLINK_ReadReg(R15)  returns 0x20000000 (0000ms, 0914ms total)
T2A68 027:125 JLINK_ClrBPEx(BPHandle = 0x00000003)  returns 0x00 (0000ms, 0914ms total)
T2A68 027:125 JLINK_ReadReg(R0)  returns 0x00000000 (0000ms, 0914ms total)
T2A68 027:125 JLINK_WriteReg(R0, 0x08001000)  returns 0x00 (0000ms, 0914ms total)
T2A68 027:125 JLINK_WriteReg(R1, 0x00000800)  returns 0x00 (0000ms, 0914ms total)
T2A68 027:125 JLINK_WriteReg(R2, 0x000000FF)  returns 0x00 (0000ms, 0914ms total)
T2A68 027:125 JLINK_WriteReg(R3, 0x00000000)  returns 0x00 (0000ms, 0914ms total)
T2A68 027:125 JLINK_WriteReg(R4, 0x00000000)  returns 0x00 (0000ms, 0914ms total)
T2A68 027:125 JLINK_WriteReg(R5, 0x00000000)  returns 0x00 (0000ms, 0914ms total)
T2A68 027:125 JLINK_WriteReg(R6, 0x00000000)  returns 0x00 (0000ms, 0914ms total)
T2A68 027:125 JLINK_WriteReg(R7, 0x00000000)  returns 0x00 (0000ms, 0914ms total)
T2A68 027:125 JLINK_WriteReg(R8, 0x00000000)  returns 0x00 (0000ms, 0914ms total)
T2A68 027:125 JLINK_WriteReg(R9, 0x20000160)  returns 0x00 (0000ms, 0914ms total)
T2A68 027:125 JLINK_WriteReg(R10, 0x00000000)  returns 0x00 (0000ms, 0914ms total)
T2A68 027:125 JLINK_WriteReg(R11, 0x00000000)  returns 0x00 (0000ms, 0914ms total)
T2A68 027:125 JLINK_WriteReg(R12, 0x00000000)  returns 0x00 (0000ms, 0914ms total)
T2A68 027:125 JLINK_WriteReg(R13, 0x20000800)  returns 0x00 (0000ms, 0914ms total)
T2A68 027:125 JLINK_WriteReg(R14, 0x20000001)  returns 0x00 (0000ms, 0914ms total)
T2A68 027:125 JLINK_WriteReg(R15, 0x20000020)  returns 0x00 (0000ms, 0914ms total)
T2A68 027:125 JLINK_WriteReg(XPSR, 0x01000000)  returns 0x00 (0000ms, 0914ms total)
T2A68 027:125 JLINK_WriteReg(MSP, 0x20000800)  returns 0x00 (0000ms, 0914ms total)
T2A68 027:125 JLINK_WriteReg(PSP, 0x20000800)  returns 0x00 (0000ms, 0914ms total)
T2A68 027:125 JLINK_WriteReg(CFBP, 0x00000000)  returns 0x00 (0001ms, 0915ms total)
T2A68 027:126 JLINK_SetBPEx(Addr = 0x20000000, Type = 0xFFFFFFF2)  returns 0x00000004 (0000ms, 0915ms total)
T2A68 027:126 JLINK_Go() (0001ms, 0916ms total)
T2A68 027:127 JLINK_IsHalted()  returns FALSE (0000ms, 0916ms total)
T2A68 027:129 JLINK_IsHalted()  returns FALSE (0000ms, 0916ms total)
T2A68 027:131 JLINK_IsHalted() -- CPU_ReadMem(2 bytes @ 0x20000000)  returns TRUE (0002ms, 0918ms total)
T2A68 027:133 JLINK_ReadReg(R15)  returns 0x20000000 (0000ms, 0916ms total)
T2A68 027:133 JLINK_ClrBPEx(BPHandle = 0x00000004)  returns 0x00 (0000ms, 0916ms total)
T2A68 027:133 JLINK_ReadReg(R0)  returns 0x00000000 (0000ms, 0916ms total)
T2A68 027:136 JLINK_WriteReg(R0, 0x08001800)  returns 0x00 (0000ms, 0916ms total)
T2A68 027:136 JLINK_WriteReg(R1, 0x00000800)  returns 0x00 (0000ms, 0916ms total)
T2A68 027:136 JLINK_WriteReg(R2, 0x000000FF)  returns 0x00 (0000ms, 0916ms total)
T2A68 027:136 JLINK_WriteReg(R3, 0x00000000)  returns 0x00 (0000ms, 0916ms total)
T2A68 027:136 JLINK_WriteReg(R4, 0x00000000)  returns 0x00 (0000ms, 0916ms total)
T2A68 027:136 JLINK_WriteReg(R5, 0x00000000)  returns 0x00 (0000ms, 0916ms total)
T2A68 027:136 JLINK_WriteReg(R6, 0x00000000)  returns 0x00 (0000ms, 0916ms total)
T2A68 027:136 JLINK_WriteReg(R7, 0x00000000)  returns 0x00 (0000ms, 0916ms total)
T2A68 027:136 JLINK_WriteReg(R8, 0x00000000)  returns 0x00 (0000ms, 0916ms total)
T2A68 027:136 JLINK_WriteReg(R9, 0x20000160)  returns 0x00 (0000ms, 0916ms total)
T2A68 027:136 JLINK_WriteReg(R10, 0x00000000)  returns 0x00 (0000ms, 0916ms total)
T2A68 027:136 JLINK_WriteReg(R11, 0x00000000)  returns 0x00 (0000ms, 0916ms total)
T2A68 027:136 JLINK_WriteReg(R12, 0x00000000)  returns 0x00 (0000ms, 0916ms total)
T2A68 027:136 JLINK_WriteReg(R13, 0x20000800)  returns 0x00 (0000ms, 0916ms total)
T2A68 027:136 JLINK_WriteReg(R14, 0x20000001)  returns 0x00 (0000ms, 0916ms total)
T2A68 027:136 JLINK_WriteReg(R15, 0x20000020)  returns 0x00 (0000ms, 0916ms total)
T2A68 027:136 JLINK_WriteReg(XPSR, 0x01000000)  returns 0x00 (0000ms, 0916ms total)
T2A68 027:136 JLINK_WriteReg(MSP, 0x20000800)  returns 0x00 (0000ms, 0916ms total)
T2A68 027:136 JLINK_WriteReg(PSP, 0x20000800)  returns 0x00 (0000ms, 0916ms total)
T2A68 027:136 JLINK_WriteReg(CFBP, 0x00000000)  returns 0x00 (0000ms, 0916ms total)
T2A68 027:136 JLINK_SetBPEx(Addr = 0x20000000, Type = 0xFFFFFFF2)  returns 0x00000005 (0000ms, 0916ms total)
T2A68 027:136 JLINK_Go() (0001ms, 0917ms total)
T2A68 027:137 JLINK_IsHalted()  returns FALSE (0000ms, 0917ms total)
T2A68 027:151 JLINK_IsHalted() -- CPU_ReadMem(2 bytes @ 0x20000000)  returns TRUE (0002ms, 0919ms total)
T2A68 027:153 JLINK_ReadReg(R15)  returns 0x20000000 (0000ms, 0917ms total)
T2A68 027:153 JLINK_ClrBPEx(BPHandle = 0x00000005)  returns 0x00 (0000ms, 0917ms total)
T2A68 027:153 JLINK_ReadReg(R0)  returns 0x00000000 (0000ms, 0917ms total)
T2A68 027:153 JLINK_WriteReg(R0, 0x08002000)  returns 0x00 (0000ms, 0917ms total)
T2A68 027:153 JLINK_WriteReg(R1, 0x00000800)  returns 0x00 (0000ms, 0917ms total)
T2A68 027:153 JLINK_WriteReg(R2, 0x000000FF)  returns 0x00 (0000ms, 0917ms total)
T2A68 027:153 JLINK_WriteReg(R3, 0x00000000)  returns 0x00 (0000ms, 0917ms total)
T2A68 027:153 JLINK_WriteReg(R4, 0x00000000)  returns 0x00 (0001ms, 0918ms total)
T2A68 027:154 JLINK_WriteReg(R5, 0x00000000)  returns 0x00 (0000ms, 0918ms total)
T2A68 027:154 JLINK_WriteReg(R6, 0x00000000)  returns 0x00 (0000ms, 0918ms total)
T2A68 027:154 JLINK_WriteReg(R7, 0x00000000)  returns 0x00 (0000ms, 0918ms total)
T2A68 027:154 JLINK_WriteReg(R8, 0x00000000)  returns 0x00 (0000ms, 0918ms total)
T2A68 027:154 JLINK_WriteReg(R9, 0x20000160)  returns 0x00 (0000ms, 0918ms total)
T2A68 027:154 JLINK_WriteReg(R10, 0x00000000)  returns 0x00 (0000ms, 0918ms total)
T2A68 027:154 JLINK_WriteReg(R11, 0x00000000)  returns 0x00 (0000ms, 0918ms total)
T2A68 027:154 JLINK_WriteReg(R12, 0x00000000)  returns 0x00 (0000ms, 0918ms total)
T2A68 027:154 JLINK_WriteReg(R13, 0x20000800)  returns 0x00 (0000ms, 0918ms total)
T2A68 027:154 JLINK_WriteReg(R14, 0x20000001)  returns 0x00 (0000ms, 0918ms total)
T2A68 027:154 JLINK_WriteReg(R15, 0x20000020)  returns 0x00 (0000ms, 0918ms total)
T2A68 027:154 JLINK_WriteReg(XPSR, 0x01000000)  returns 0x00 (0000ms, 0918ms total)
T2A68 027:154 JLINK_WriteReg(MSP, 0x20000800)  returns 0x00 (0000ms, 0918ms total)
T2A68 027:154 JLINK_WriteReg(PSP, 0x20000800)  returns 0x00 (0000ms, 0918ms total)
T2A68 027:154 JLINK_WriteReg(CFBP, 0x00000000)  returns 0x00 (0000ms, 0918ms total)
T2A68 027:154 JLINK_SetBPEx(Addr = 0x20000000, Type = 0xFFFFFFF2)  returns 0x00000006 (0000ms, 0918ms total)
T2A68 027:154 JLINK_Go() (0001ms, 0919ms total)
T2A68 027:155 JLINK_IsHalted()  returns FALSE (0000ms, 0919ms total)
T2A68 027:157 JLINK_IsHalted()  returns FALSE (0000ms, 0919ms total)
T2A68 027:159 JLINK_IsHalted() -- CPU_ReadMem(2 bytes @ 0x20000000)  returns TRUE (0002ms, 0921ms total)
T2A68 027:161 JLINK_ReadReg(R15)  returns 0x20000000 (0000ms, 0919ms total)
T2A68 027:161 JLINK_ClrBPEx(BPHandle = 0x00000006)  returns 0x00 (0000ms, 0919ms total)
T2A68 027:161 JLINK_ReadReg(R0)  returns 0x00000000 (0000ms, 0919ms total)
T2A68 027:161 JLINK_WriteReg(R0, 0x08002800)  returns 0x00 (0000ms, 0919ms total)
T2A68 027:161 JLINK_WriteReg(R1, 0x00000800)  returns 0x00 (0000ms, 0919ms total)
T2A68 027:161 JLINK_WriteReg(R2, 0x000000FF)  returns 0x00 (0000ms, 0919ms total)
T2A68 027:161 JLINK_WriteReg(R3, 0x00000000)  returns 0x00 (0000ms, 0919ms total)
T2A68 027:161 JLINK_WriteReg(R4, 0x00000000)  returns 0x00 (0000ms, 0919ms total)
T2A68 027:161 JLINK_WriteReg(R5, 0x00000000)  returns 0x00 (0000ms, 0919ms total)
T2A68 027:161 JLINK_WriteReg(R6, 0x00000000)  returns 0x00 (0000ms, 0919ms total)
T2A68 027:161 JLINK_WriteReg(R7, 0x00000000)  returns 0x00 (0000ms, 0919ms total)
T2A68 027:161 JLINK_WriteReg(R8, 0x00000000)  returns 0x00 (0000ms, 0919ms total)
T2A68 027:161 JLINK_WriteReg(R9, 0x20000160)  returns 0x00 (0000ms, 0919ms total)
T2A68 027:161 JLINK_WriteReg(R10, 0x00000000)  returns 0x00 (0000ms, 0919ms total)
T2A68 027:161 JLINK_WriteReg(R11, 0x00000000)  returns 0x00 (0000ms, 0919ms total)
T2A68 027:161 JLINK_WriteReg(R12, 0x00000000)  returns 0x00 (0000ms, 0919ms total)
T2A68 027:161 JLINK_WriteReg(R13, 0x20000800)  returns 0x00 (0000ms, 0919ms total)
T2A68 027:161 JLINK_WriteReg(R14, 0x20000001)  returns 0x00 (0000ms, 0919ms total)
T2A68 027:161 JLINK_WriteReg(R15, 0x20000020)  returns 0x00 (0000ms, 0919ms total)
T2A68 027:161 JLINK_WriteReg(XPSR, 0x01000000)  returns 0x00 (0000ms, 0919ms total)
T2A68 027:161 JLINK_WriteReg(MSP, 0x20000800)  returns 0x00 (0000ms, 0919ms total)
T2A68 027:161 JLINK_WriteReg(PSP, 0x20000800)  returns 0x00 (0000ms, 0919ms total)
T2A68 027:161 JLINK_WriteReg(CFBP, 0x00000000)  returns 0x00 (0000ms, 0919ms total)
T2A68 027:161 JLINK_SetBPEx(Addr = 0x20000000, Type = 0xFFFFFFF2)  returns 0x00000007 (0000ms, 0919ms total)
T2A68 027:161 JLINK_Go() (0002ms, 0921ms total)
T2A68 027:163 JLINK_IsHalted()  returns FALSE (0000ms, 0921ms total)
T2A68 027:167 JLINK_IsHalted() -- CPU_ReadMem(2 bytes @ 0x20000000)  returns TRUE (0002ms, 0923ms total)
T2A68 027:169 JLINK_ReadReg(R15)  returns 0x20000000 (0000ms, 0921ms total)
T2A68 027:169 JLINK_ClrBPEx(BPHandle = 0x00000007)  returns 0x00 (0000ms, 0921ms total)
T2A68 027:169 JLINK_ReadReg(R0)  returns 0x00000000 (0000ms, 0921ms total)
T2A68 027:169 JLINK_WriteReg(R0, 0x00000001)  returns 0x00 (0000ms, 0921ms total)
T2A68 027:169 JLINK_WriteReg(R1, 0x00000800)  returns 0x00 (0000ms, 0921ms total)
T2A68 027:169 JLINK_WriteReg(R2, 0x000000FF)  returns 0x00 (0000ms, 0921ms total)
T2A68 027:169 JLINK_WriteReg(R3, 0x00000000)  returns 0x00 (0000ms, 0921ms total)
T2A68 027:169 JLINK_WriteReg(R4, 0x00000000)  returns 0x00 (0000ms, 0921ms total)
T2A68 027:169 JLINK_WriteReg(R5, 0x00000000)  returns 0x00 (0000ms, 0921ms total)
T2A68 027:169 JLINK_WriteReg(R6, 0x00000000)  returns 0x00 (0000ms, 0921ms total)
T2A68 027:169 JLINK_WriteReg(R7, 0x00000000)  returns 0x00 (0000ms, 0921ms total)
T2A68 027:169 JLINK_WriteReg(R8, 0x00000000)  returns 0x00 (0000ms, 0921ms total)
T2A68 027:169 JLINK_WriteReg(R9, 0x20000160)  returns 0x00 (0000ms, 0921ms total)
T2A68 027:169 JLINK_WriteReg(R10, 0x00000000)  returns 0x00 (0000ms, 0921ms total)
T2A68 027:169 JLINK_WriteReg(R11, 0x00000000)  returns 0x00 (0000ms, 0921ms total)
T2A68 027:169 JLINK_WriteReg(R12, 0x00000000)  returns 0x00 (0000ms, 0921ms total)
T2A68 027:169 JLINK_WriteReg(R13, 0x20000800)  returns 0x00 (0000ms, 0921ms total)
T2A68 027:169 JLINK_WriteReg(R14, 0x20000001)  returns 0x00 (0000ms, 0921ms total)
T2A68 027:169 JLINK_WriteReg(R15, 0x2000006A)  returns 0x00 (0000ms, 0921ms total)
T2A68 027:169 JLINK_WriteReg(XPSR, 0x01000000)  returns 0x00 (0000ms, 0921ms total)
T2A68 027:169 JLINK_WriteReg(MSP, 0x20000800)  returns 0x00 (0000ms, 0921ms total)
T2A68 027:169 JLINK_WriteReg(PSP, 0x20000800)  returns 0x00 (0000ms, 0921ms total)
T2A68 027:169 JLINK_WriteReg(CFBP, 0x00000000)  returns 0x00 (0001ms, 0922ms total)
T2A68 027:170 JLINK_SetBPEx(Addr = 0x20000000, Type = 0xFFFFFFF2)  returns 0x00000008 (0000ms, 0922ms total)
T2A68 027:170 JLINK_Go() (0001ms, 0923ms total)
T2A68 027:171 JLINK_IsHalted() -- CPU_ReadMem(2 bytes @ 0x20000000)  returns TRUE (0002ms, 0925ms total)
T2A68 027:173 JLINK_ReadReg(R15)  returns 0x20000000 (0000ms, 0923ms total)
T2A68 027:173 JLINK_ClrBPEx(BPHandle = 0x00000008)  returns 0x00 (0000ms, 0923ms total)
T2A68 027:173 JLINK_ReadReg(R0)  returns 0x00000000 (0000ms, 0923ms total)
T2A68 027:230 JLINK_WriteMem(0x20000000, 0x0164 Bytes, ...) -- Data:  00 BE 0A E0 0D 78 2D 06 68 40 08 24 40 00 00 D3 ... -- CPU_WriteMem(356 bytes @ 0x20000000)  returns 0x164 (0002ms, 0925ms total)
T2A68 027:232 JLINK_WriteReg(R0, 0x08000000)  returns 0x00 (0000ms, 0925ms total)
T2A68 027:232 JLINK_WriteReg(R1, 0x007A1200)  returns 0x00 (0000ms, 0925ms total)
T2A68 027:232 JLINK_WriteReg(R2, 0x00000002)  returns 0x00 (0000ms, 0925ms total)
T2A68 027:232 JLINK_WriteReg(R3, 0x00000000)  returns 0x00 (0000ms, 0925ms total)
T2A68 027:232 JLINK_WriteReg(R4, 0x00000000)  returns 0x00 (0000ms, 0925ms total)
T2A68 027:232 JLINK_WriteReg(R5, 0x00000000)  returns 0x00 (0000ms, 0925ms total)
T2A68 027:232 JLINK_WriteReg(R6, 0x00000000)  returns 0x00 (0000ms, 0925ms total)
T2A68 027:232 JLINK_WriteReg(R7, 0x00000000)  returns 0x00 (0000ms, 0925ms total)
T2A68 027:232 JLINK_WriteReg(R8, 0x00000000)  returns 0x00 (0000ms, 0925ms total)
T2A68 027:232 JLINK_WriteReg(R9, 0x20000160)  returns 0x00 (0000ms, 0925ms total)
T2A68 027:232 JLINK_WriteReg(R10, 0x00000000)  returns 0x00 (0001ms, 0926ms total)
T2A68 027:233 JLINK_WriteReg(R11, 0x00000000)  returns 0x00 (0000ms, 0926ms total)
T2A68 027:233 JLINK_WriteReg(R12, 0x00000000)  returns 0x00 (0000ms, 0926ms total)
T2A68 027:233 JLINK_WriteReg(R13, 0x20000800)  returns 0x00 (0000ms, 0926ms total)
T2A68 027:233 JLINK_WriteReg(R14, 0x20000001)  returns 0x00 (0000ms, 0926ms total)
T2A68 027:233 JLINK_WriteReg(R15, 0x20000038)  returns 0x00 (0000ms, 0926ms total)
T2A68 027:233 JLINK_WriteReg(XPSR, 0x01000000)  returns 0x00 (0000ms, 0926ms total)
T2A68 027:233 JLINK_WriteReg(MSP, 0x20000800)  returns 0x00 (0000ms, 0926ms total)
T2A68 027:233 JLINK_WriteReg(PSP, 0x20000800)  returns 0x00 (0000ms, 0926ms total)
T2A68 027:233 JLINK_WriteReg(CFBP, 0x00000000)  returns 0x00 (0000ms, 0926ms total)
T2A68 027:233 JLINK_SetBPEx(Addr = 0x20000000, Type = 0xFFFFFFF2) -- CPU_ReadMem(2 bytes @ 0x20000000)  returns 0x00000009 (0000ms, 0926ms total)
T2A68 027:233 JLINK_Go() -- CPU_WriteMem(2 bytes @ 0x20000000) (0001ms, 0927ms total)
T2A68 027:234 JLINK_IsHalted() -- CPU_ReadMem(2 bytes @ 0x20000000)  returns TRUE (0003ms, 0930ms total)
T2A68 027:237 JLINK_ReadReg(R15)  returns 0x20000000 (0000ms, 0927ms total)
T2A68 027:237 JLINK_ClrBPEx(BPHandle = 0x00000009)  returns 0x00 (0000ms, 0927ms total)
T2A68 027:237 JLINK_ReadReg(R0)  returns 0x00000000 (0000ms, 0927ms total)
T2A68 027:237 JLINK_WriteMem(0x20000164, 0x0400 Bytes, ...) -- Data:  F8 1D 00 20 75 02 00 08 79 02 00 08 7B 02 00 08 ... -- CPU_WriteMem(1024 bytes @ 0x20000164)  returns 0x400 (0007ms, 0934ms total)
T2A68 027:244 JLINK_WriteReg(R0, 0x08000000)  returns 0x00 (0000ms, 0934ms total)
T2A68 027:244 JLINK_WriteReg(R1, 0x00000400)  returns 0x00 (0000ms, 0934ms total)
T2A68 027:244 JLINK_WriteReg(R2, 0x20000164)  returns 0x00 (0000ms, 0934ms total)
T2A68 027:244 JLINK_WriteReg(R3, 0x00000000)  returns 0x00 (0000ms, 0934ms total)
T2A68 027:244 JLINK_WriteReg(R4, 0x00000000)  returns 0x00 (0000ms, 0934ms total)
T2A68 027:244 JLINK_WriteReg(R5, 0x00000000)  returns 0x00 (0000ms, 0934ms total)
T2A68 027:244 JLINK_WriteReg(R6, 0x00000000)  returns 0x00 (0000ms, 0934ms total)
T2A68 027:244 JLINK_WriteReg(R7, 0x00000000)  returns 0x00 (0000ms, 0934ms total)
T2A68 027:244 JLINK_WriteReg(R8, 0x00000000)  returns 0x00 (0000ms, 0934ms total)
T2A68 027:244 JLINK_WriteReg(R9, 0x20000160)  returns 0x00 (0000ms, 0934ms total)
T2A68 027:244 JLINK_WriteReg(R10, 0x00000000)  returns 0x00 (0000ms, 0934ms total)
T2A68 027:244 JLINK_WriteReg(R11, 0x00000000)  returns 0x00 (0000ms, 0934ms total)
T2A68 027:244 JLINK_WriteReg(R12, 0x00000000)  returns 0x00 (0000ms, 0934ms total)
T2A68 027:244 JLINK_WriteReg(R13, 0x20000800)  returns 0x00 (0000ms, 0934ms total)
T2A68 027:244 JLINK_WriteReg(R14, 0x20000001)  returns 0x00 (0000ms, 0934ms total)
T2A68 027:244 JLINK_WriteReg(R15, 0x200000F4)  returns 0x00 (0000ms, 0934ms total)
T2A68 027:244 JLINK_WriteReg(XPSR, 0x01000000)  returns 0x00 (0000ms, 0934ms total)
T2A68 027:244 JLINK_WriteReg(MSP, 0x20000800)  returns 0x00 (0000ms, 0934ms total)
T2A68 027:244 JLINK_WriteReg(PSP, 0x20000800)  returns 0x00 (0000ms, 0934ms total)
T2A68 027:244 JLINK_WriteReg(CFBP, 0x00000000)  returns 0x00 (0000ms, 0934ms total)
T2A68 027:244 JLINK_SetBPEx(Addr = 0x20000000, Type = 0xFFFFFFF2)  returns 0x0000000A (0000ms, 0934ms total)
T2A68 027:244 JLINK_Go() (0001ms, 0935ms total)
T2A68 027:245 JLINK_IsHalted()  returns FALSE (0000ms, 0935ms total)
T2A68 027:260 JLINK_IsHalted()  returns FALSE (0000ms, 0935ms total)
T2A68 027:264 JLINK_IsHalted()  returns FALSE (0000ms, 0935ms total)
T2A68 027:266 JLINK_IsHalted()  returns FALSE (0000ms, 0935ms total)
T2A68 027:268 JLINK_IsHalted()  returns FALSE (0000ms, 0935ms total)
T2A68 027:270 JLINK_IsHalted()  returns FALSE (0000ms, 0935ms total)
T2A68 027:272 JLINK_IsHalted()  returns FALSE (0000ms, 0935ms total)
T2A68 027:279 JLINK_IsHalted() -- CPU_ReadMem(2 bytes @ 0x20000000)  returns TRUE (0002ms, 0937ms total)
T2A68 027:281 JLINK_ReadReg(R15)  returns 0x20000000 (0000ms, 0935ms total)
T2A68 027:281 JLINK_ClrBPEx(BPHandle = 0x0000000A)  returns 0x00 (0000ms, 0935ms total)
T2A68 027:281 JLINK_ReadReg(R0)  returns 0x00000000 (0000ms, 0935ms total)
T2A68 027:282 JLINK_WriteMem(0x20000164, 0x0400 Bytes, ...) -- Data:  00 F0 D4 F8 80 B1 00 F0 E3 FF 98 B1 01 F0 44 F9 ... -- CPU_WriteMem(1024 bytes @ 0x20000164)  returns 0x400 (0006ms, 0941ms total)
T2A68 027:288 JLINK_WriteReg(R0, 0x08000400)  returns 0x00 (0000ms, 0941ms total)
T2A68 027:288 JLINK_WriteReg(R1, 0x00000400)  returns 0x00 (0000ms, 0941ms total)
T2A68 027:288 JLINK_WriteReg(R2, 0x20000164)  returns 0x00 (0000ms, 0941ms total)
T2A68 027:288 JLINK_WriteReg(R3, 0x00000000)  returns 0x00 (0000ms, 0941ms total)
T2A68 027:288 JLINK_WriteReg(R4, 0x00000000)  returns 0x00 (0000ms, 0941ms total)
T2A68 027:288 JLINK_WriteReg(R5, 0x00000000)  returns 0x00 (0000ms, 0941ms total)
T2A68 027:288 JLINK_WriteReg(R6, 0x00000000)  returns 0x00 (0000ms, 0941ms total)
T2A68 027:288 JLINK_WriteReg(R7, 0x00000000)  returns 0x00 (0000ms, 0941ms total)
T2A68 027:288 JLINK_WriteReg(R8, 0x00000000)  returns 0x00 (0000ms, 0941ms total)
T2A68 027:288 JLINK_WriteReg(R9, 0x20000160)  returns 0x00 (0000ms, 0941ms total)
T2A68 027:288 JLINK_WriteReg(R10, 0x00000000)  returns 0x00 (0000ms, 0941ms total)
T2A68 027:288 JLINK_WriteReg(R11, 0x00000000)  returns 0x00 (0000ms, 0941ms total)
T2A68 027:288 JLINK_WriteReg(R12, 0x00000000)  returns 0x00 (0000ms, 0941ms total)
T2A68 027:288 JLINK_WriteReg(R13, 0x20000800)  returns 0x00 (0000ms, 0941ms total)
T2A68 027:288 JLINK_WriteReg(R14, 0x20000001)  returns 0x00 (0000ms, 0941ms total)
T2A68 027:288 JLINK_WriteReg(R15, 0x200000F4)  returns 0x00 (0000ms, 0941ms total)
T2A68 027:288 JLINK_WriteReg(XPSR, 0x01000000)  returns 0x00 (0000ms, 0941ms total)
T2A68 027:288 JLINK_WriteReg(MSP, 0x20000800)  returns 0x00 (0000ms, 0941ms total)
T2A68 027:288 JLINK_WriteReg(PSP, 0x20000800)  returns 0x00 (0000ms, 0941ms total)
T2A68 027:288 JLINK_WriteReg(CFBP, 0x00000000)  returns 0x00 (0000ms, 0941ms total)
T2A68 027:288 JLINK_SetBPEx(Addr = 0x20000000, Type = 0xFFFFFFF2)  returns 0x0000000B (0000ms, 0941ms total)
T2A68 027:288 JLINK_Go() (0002ms, 0943ms total)
T2A68 027:290 JLINK_IsHalted()  returns FALSE (0000ms, 0943ms total)
T2A68 027:293 JLINK_IsHalted()  returns FALSE (0000ms, 0943ms total)
T2A68 027:295 JLINK_IsHalted()  returns FALSE (0000ms, 0943ms total)
T2A68 027:297 JLINK_IsHalted()  returns FALSE (0000ms, 0943ms total)
T2A68 027:299 JLINK_IsHalted()  returns FALSE (0000ms, 0943ms total)
T2A68 027:301 JLINK_IsHalted()  returns FALSE (0000ms, 0943ms total)
T2A68 027:303 JLINK_IsHalted()  returns FALSE (0000ms, 0943ms total)
T2A68 027:314 JLINK_IsHalted()  returns FALSE (0000ms, 0943ms total)
T2A68 027:316 JLINK_IsHalted()  returns FALSE (0000ms, 0943ms total)
T2A68 027:318 JLINK_IsHalted()  returns FALSE (0000ms, 0943ms total)
T2A68 027:320 JLINK_IsHalted()  returns FALSE (0000ms, 0943ms total)
T2A68 027:323 JLINK_IsHalted() -- CPU_ReadMem(2 bytes @ 0x20000000)  returns TRUE (0002ms, 0945ms total)
T2A68 027:325 JLINK_ReadReg(R15)  returns 0x20000000 (0000ms, 0943ms total)
T2A68 027:325 JLINK_ClrBPEx(BPHandle = 0x0000000B)  returns 0x00 (0000ms, 0943ms total)
T2A68 027:325 JLINK_ReadReg(R0)  returns 0x00000000 (0000ms, 0943ms total)
T2A68 027:325 JLINK_WriteMem(0x20000164, 0x0400 Bytes, ...) -- Data:  45 FD 22 46 FD 49 0C 98 00 F0 EC FF A0 42 0C D0 ... -- CPU_WriteMem(1024 bytes @ 0x20000164)  returns 0x400 (0007ms, 0950ms total)
T2A68 027:332 JLINK_WriteReg(R0, 0x08000800)  returns 0x00 (0000ms, 0950ms total)
T2A68 027:332 JLINK_WriteReg(R1, 0x00000400)  returns 0x00 (0000ms, 0950ms total)
T2A68 027:332 JLINK_WriteReg(R2, 0x20000164)  returns 0x00 (0000ms, 0950ms total)
T2A68 027:332 JLINK_WriteReg(R3, 0x00000000)  returns 0x00 (0000ms, 0950ms total)
T2A68 027:332 JLINK_WriteReg(R4, 0x00000000)  returns 0x00 (0000ms, 0950ms total)
T2A68 027:332 JLINK_WriteReg(R5, 0x00000000)  returns 0x00 (0000ms, 0950ms total)
T2A68 027:332 JLINK_WriteReg(R6, 0x00000000)  returns 0x00 (0000ms, 0950ms total)
T2A68 027:332 JLINK_WriteReg(R7, 0x00000000)  returns 0x00 (0000ms, 0950ms total)
T2A68 027:332 JLINK_WriteReg(R8, 0x00000000)  returns 0x00 (0000ms, 0950ms total)
T2A68 027:332 JLINK_WriteReg(R9, 0x20000160)  returns 0x00 (0000ms, 0950ms total)
T2A68 027:332 JLINK_WriteReg(R10, 0x00000000)  returns 0x00 (0000ms, 0950ms total)
T2A68 027:332 JLINK_WriteReg(R11, 0x00000000)  returns 0x00 (0000ms, 0950ms total)
T2A68 027:332 JLINK_WriteReg(R12, 0x00000000)  returns 0x00 (0000ms, 0950ms total)
T2A68 027:332 JLINK_WriteReg(R13, 0x20000800)  returns 0x00 (0000ms, 0950ms total)
T2A68 027:332 JLINK_WriteReg(R14, 0x20000001)  returns 0x00 (0000ms, 0950ms total)
T2A68 027:332 JLINK_WriteReg(R15, 0x200000F4)  returns 0x00 (0000ms, 0950ms total)
T2A68 027:332 JLINK_WriteReg(XPSR, 0x01000000)  returns 0x00 (0000ms, 0950ms total)
T2A68 027:332 JLINK_WriteReg(MSP, 0x20000800)  returns 0x00 (0000ms, 0950ms total)
T2A68 027:332 JLINK_WriteReg(PSP, 0x20000800)  returns 0x00 (0000ms, 0950ms total)
